
T2428 000:056 SEGGER J-Link V4.58a Log File (0000ms, 0056ms total)
T2428 000:056 DLL Compiled: Dec  5 2012 18:38:08 (0000ms, 0056ms total)
T2428 000:056 Logging started @ 2016-06-09 21:30 (0000ms, 0056ms total)
T2428 000:056 JLINK_SetWarnOutHandler(...) (0000ms, 0056ms total)
T2428 000:056 JLINK_OpenEx(...)
Firmware: J-Link ARM V8 compiled Jan 31 2018 18:34:52
Hardware: V8.00
S/N: 20080643
Feature(s): RDI,FlashDL,FlashBP,JFlash,GDBFull  returns O.K. (0034ms, 0090ms total)
T2428 000:090 JLINK_SetErrorOutHandler(...) (0000ms, 0090ms total)
T2428 000:090 JLINK_ExecCommand("ProjectFile = "E:\stm32Ñ§Ï°\stm32³ÌÐò(×ÔÖÆ)\³¬Éù²¨²â¾àÄ£¿é\Project\RVMDK£¨uv4£©\JLinkSettings.ini"", ...)  returns 0x00 (0001ms, 0091ms total)
T2428 000:093 JLINK_ExecCommand("Device = STM32F103ZE", ...)
                JLINK_ExecCommand("map ram 0x20000000 - 0x2000FFFF", ...)  returns 0x00 (0000ms, 0000ms total)
                JLINK_AddMirrorAreaEx(Addr = 0x00000000, Size = 0x00000000) (0000ms, 0000ms total)
              Device "STM32F103ZE" selected (512 KB flash, 64 KB RAM).  returns 0x00 (0009ms, 0100ms total)
T2428 000:102 JLINK_ExecCommand("DisableConnectionTimeout", ...)  returns 0x00 (0000ms, 0100ms total)
T2428 000:102 JLINK_GetHardwareVersion()  returns 0x13880 (0000ms, 0100ms total)
T2428 000:102 JLINK_GetDLLVersion()  returns 45801 (0000ms, 0100ms total)
T2428 000:102 JLINK_GetFirmwareString(...) (0000ms, 0100ms total)
T2428 000:114 JLINK_GetDLLVersion()  returns 45801 (0000ms, 0100ms total)
T2428 000:114 JLINK_GetCompileDateTime() (0000ms, 0100ms total)
T2428 000:118 JLINK_GetFirmwareString(...) (0000ms, 0100ms total)
T2428 000:121 JLINK_GetHardwareVersion()  returns 0x13880 (0000ms, 0100ms total)
T2428 000:134 JLINK_TIF_Select(JLINKARM_TIF_JTAG)  returns 0x00 (0000ms, 0100ms total)
T2428 000:134 JLINK_SetSpeed(5000) (0000ms, 0100ms total)
T2428 000:134 JLINK_GetIdData(...) >0x2F8 JTAG>TotalIRLen = 9, IRPrint = 0x0011 >0x30 JTAG> >0x210 JTAG> >0x40 JTAG> >0x40 JTAG> >0x40 JTAG> >0x30 JTAG> >0x40 JTAG> >0x40 JTAG> >0x40 JTAG> >0x40 JTAG> >0x40 JTAG> >0x40 JTAG> >0x40 JTAG> >0x40 JTAG> >0x2F8 JTAG>TotalIRLen = 9, IRPrint = 0x0011 >0x30 JTAG> >0x210 JTAG> >0x80 JTAG> >0x40 JTAG> >0x40 JTAG> >0x50 JTAG> >0x40 JTAG> >0x40 JTAG> >0x40 JTAG> >0x50 JTAG> >0x40 JTAG> >0x40 JTAG> >0x40 JTAG> >0x30 JTAG> >0x40 JTAG> >0x50 JTAG> >0x40 JTAG>
 >0x38 JTAG> >0x80 JTAG> >0x40 JTAG> >0x40 JTAG> >0x50 JTAG> >0x40 JTAG> >0x40 JTAG> >0x40 JTAG> >0x50 JTAG> >0x40 JTAG> >0x40 JTAG> >0x30 JTAG> >0x40 JTAG> >0x40 JTAG> >0x40 JTAG> >0x40 JTAG> >0x40 JTAG> >0x50 JTAG> >0x40 JTAG> >0x80 JTAG> >0x40 JTAG> >0x30 JTAG> >0x40 JTAG> >0x40 JTAG> >0x40 JTAG> >0x40 JTAG> >0x40 JTAG> >0x50 JTAG> >0x40 JTAG> >0x80 JTAG> >0x40 JTAG> >0x30 JTAG> >0x40 JTAG> >0x50 JTAG> >0x40 JTAG> >0x40 JTAG> >0x40 JTAG> >0x30 JTAG> >0x40 JTAG> >0x50 JTAG> >0x40 JTAG>
Found Cortex-M3 r1p1, Little endian. >0x50 JTAG> >0x50 JTAG> >0x40 JTAG> >0x40 JTAG> >0x30 JTAG> >0x30 JTAG> >0x50 JTAG> >0x40 JTAG> >0x80 JTAG> >0x40 JTAG> >0x30 JTAG> >0x40 JTAG> >0x50 JTAG> >0x40 JTAG> >0x40 JTAG> >0x40 JTAG> >0x30 JTAG> >0x40 JTAG> >0x50 JTAG> >0x40 JTAG>TPIU fitted. >0x40 JTAG> >0x40 JTAG> >0x30 JTAG> >0x40 JTAG> >0x50 JTAG> >0x40 JTAG>ETM fitted. >0x40 JTAG> >0x40 JTAG> >0x30 JTAG> >0x40 JTAG> >0x50 JTAG> >0x40 JTAG> >0x40 JTAG> >0x40 JTAG> >0x30 JTAG> >0x40 JTAG> >0x50 JTAG>
 >0x40 JTAG>FPUnit: 6 code (BP) slots and 2 literal slots >0x40 JTAG> >0x40 JTAG> >0x30 JTAG> >0x40 JTAG> >0x50 JTAG> >0x40 JTAG> >0x40 JTAG> >0x40 JTAG> >0x30 JTAG> >0x40 JTAG> >0x50 JTAG> >0x40 JTAG> >0x40 JTAG> >0x40 JTAG> >0x30 JTAG> >0x30 JTAG> >0x50 JTAG> >0x40 JTAG> ScanLen=9 NumDevices=2 aId[0]=0x3BA00477 aIrRead[0]=0 aScanLen[0]=0 aScanRead[0]=0 (0157ms, 0257ms total)
T2428 000:291 JLINK_JTAG_GetDeviceID(DeviceIndex = 0)  returns 0x3BA00477 (0000ms, 0257ms total)
T2428 000:291 JLINK_JTAG_GetDeviceInfo(DeviceIndex = 0)  returns 0x00 (0000ms, 0257ms total)
T2428 000:291 JLINK_JTAG_GetDeviceID(DeviceIndex = 1)  returns 0x6414041 (0000ms, 0257ms total)
T2428 000:291 JLINK_JTAG_GetDeviceInfo(DeviceIndex = 1)  returns 0x00 (0000ms, 0257ms total)
T2428 000:291 JLINK_GetDeviceFamily()  returns 3 (0000ms, 0257ms total)
T2428 000:296 JLINK_ReadMem (0xE00FFFF0, 0x0010 Bytes, ...) -- CPU is running -- CPU_ReadMem(16 bytes @ 0xE00FFFF0) -- Data:  0D 00 00 00 10 00 00 00 05 00 00 00 B1 00 00 00  returns 0x00 (0003ms, 0260ms total)
T2428 000:299 JLINK_ReadMem (0xE00FFFD0, 0x0020 Bytes, ...) -- CPU is running -- CPU_ReadMem(32 bytes @ 0xE00FFFD0) -- Data:  00 00 00 00 00 00 00 00 00 00 00 00 00 00 00 00 ...  returns 0x00 (0001ms, 0261ms total)
T2428 000:300 JLINK_ReadMem (0xE00FF000, 0x0018 Bytes, ...) -- CPU is running -- CPU_ReadMem(24 bytes @ 0xE00FF000) -- Data:  03 F0 F0 FF 03 20 F0 FF 03 30 F0 FF 03 10 F0 FF ...  returns 0x00 (0001ms, 0262ms total)
T2428 000:301 JLINK_ReadMemU32(0xE000ED00, 0x0001 Items, ...) -- CPU is running -- CPU_ReadMem(4 bytes @ 0xE000ED00) -- Data:  31 C2 1F 41  returns 0x01 (0001ms, 0263ms total)
T2428 000:302 JLINK_SetResetType(JLINKARM_RESET_TYPE_NORMAL)  returns JLINKARM_RESET_TYPE_NORMAL (0000ms, 0263ms total)
T2428 000:302 JLINK_Reset() >0x88 JTAG> >0x80 JTAG> >0x40 JTAG> >0x40 JTAG> >0x50 JTAG> >0x40 JTAG> >0x40 JTAG> >0x40 JTAG> >0x50 JTAG> >0x40 JTAG> >0x40 JTAG> >0x30 JTAG> >0x40 JTAG> >0x40 JTAG> >0x40 JTAG> >0x40 JTAG> >0x40 JTAG> >0x50 JTAG> >0x40 JTAG> >0x80 JTAG> >0x40 JTAG> >0x30 JTAG> >0x40 JTAG> >0x40 JTAG> >0x40 JTAG> >0x40 JTAG> >0x40 JTAG> >0x50 JTAG> >0x40 JTAG> >0x80 JTAG> >0x40 JTAG> >0x30 JTAG> >0x40 JTAG> >0x50 JTAG> >0x40 JTAG> >0x40 JTAG> >0x40 JTAG> >0x30 JTAG> >0x40 JTAG> >0x50 JTAG>
 >0x40 JTAG>Found Cortex-M3 r1p1, Little endian. >0x50 JTAG> >0x50 JTAG> >0x40 JTAG> >0x40 JTAG> >0x30 JTAG> >0x30 JTAG> >0x50 JTAG> >0x40 JTAG> >0x80 JTAG> >0x40 JTAG> >0x30 JTAG> >0x40 JTAG> >0x50 JTAG> >0x40 JTAG> >0x40 JTAG> >0x40 JTAG> >0x30 JTAG> >0x40 JTAG> >0x50 JTAG> >0x40 JTAG>TPIU fitted. >0x40 JTAG> >0x40 JTAG> >0x30 JTAG> >0x40 JTAG> >0x50 JTAG> >0x40 JTAG>ETM fitted. >0x40 JTAG> >0x40 JTAG> >0x30 JTAG> >0x40 JTAG> >0x50 JTAG> >0x40 JTAG> >0x40 JTAG> >0x40 JTAG> >0x30 JTAG> >0x40 JTAG>
 >0x50 JTAG> >0x40 JTAG>FPUnit: 6 code (BP) slots and 2 literal slots >0x40 JTAG> >0x40 JTAG> >0x30 JTAG> >0x40 JTAG> >0x50 JTAG> >0x40 JTAG> >0x40 JTAG> >0x40 JTAG> >0x30 JTAG> >0x40 JTAG> >0x50 JTAG> >0x40 JTAG> >0x40 JTAG> >0x40 JTAG> >0x30 JTAG> >0x30 JTAG> >0x50 JTAG> >0x40 JTAG> -- CPU is running -- CPU_WriteMem(4 bytes @ 0xE000EDF0) -- CPU is running -- CPU_WriteMem(4 bytes @ 0xE000EDFC) -- CPU is running -- CPU_WriteMem(4 bytes @ 0xE000ED0C) -- CPU is running -- CPU_ReadMem(4 bytes @ 0xE000EDF0)
 -- CPU is running -- CPU_ReadMem(4 bytes @ 0xE000EDF0) -- CPU is running -- CPU_WriteMem(4 bytes @ 0xE000EDF0) -- CPU is running -- CPU_WriteMem(4 bytes @ 0xE000EDFC) -- CPU is running -- CPU_ReadMem(4 bytes @ 0xE000EDF0) >0xD0 JTAG> >0x40 JTAG> >0x30 JTAG> >0x40 JTAG> >0x50 JTAG> >0x40 JTAG> -- CPU_WriteMem(4 bytes @ 0xE000EDFC) -- CPU_WriteMem(4 bytes @ 0xE0001028) -- CPU_WriteMem(4 bytes @ 0xE0001038) -- CPU_WriteMem(4 bytes @ 0xE0001048) -- CPU_WriteMem(4 bytes @ 0xE0001058)
 -- CPU_WriteMem(4 bytes @ 0xE0002000) (0148ms, 0411ms total)
T2428 000:451 JLINK_Halt()  returns 0x00 (0000ms, 0412ms total)
T2428 000:451 JLINK_IsHalted()  returns TRUE (0000ms, 0412ms total)
T2428 000:451 JLINK_ReadMemU32(0xE000EDF0, 0x0001 Items, ...) -- CPU_ReadMem(4 bytes @ 0xE000EDF0) -- Data:  03 00 03 00  returns 0x01 (0000ms, 0412ms total)
T2428 000:451 JLINK_WriteU32(0xE000EDF0, 0xA05F0003) -- CPU_WriteMem(4 bytes @ 0xE000EDF0)  returns 0x00 (0001ms, 0413ms total)
T2428 000:452 JLINK_WriteU32(0xE000EDFC, 0x01000000) -- CPU_WriteMem(4 bytes @ 0xE000EDFC)  returns 0x00 (0001ms, 0414ms total)
T2428 000:465 JLINK_GetHWStatus(...)  returns 0x00 (0002ms, 0416ms total)
T2428 000:473 JLINK_GetNumBPUnits(Type = 0xFFFFFF00)  returns 0x06 (0000ms, 0416ms total)
T2428 000:473 JLINK_GetNumBPUnits(Type = 0xF0)  returns 0x2000 (0000ms, 0416ms total)
T2428 000:473 JLINK_GetNumWPUnits()  returns 0x04 (0000ms, 0416ms total)
T2428 000:481 JLINK_GetSpeed()  returns 0x12C0 (0000ms, 0416ms total)
T2428 000:488 JLINK_ReadMemU32(0xE000E004, 0x0001 Items, ...) -- CPU_ReadMem(4 bytes @ 0xE000E004) -- Data:  01 00 00 00  returns 0x01 (0002ms, 0418ms total)
T2428 000:490 JLINK_ReadMemU32(0xE000E004, 0x0001 Items, ...) -- CPU_ReadMem(4 bytes @ 0xE000E004) -- Data:  01 00 00 00  returns 0x01 (0001ms, 0419ms total)
T2428 000:491 JLINK_WriteMem(0xE0001000, 0x001C Bytes, ...) -- Data:  01 00 00 00 00 00 00 00 00 00 00 00 00 00 00 00 ... -- CPU_WriteMem(28 bytes @ 0xE0001000)  returns 0x1C (0001ms, 0420ms total)
T2428 000:492 JLINK_ReadMem (0xE0001000, 0x001C Bytes, ...) -- CPU_ReadMem(28 bytes @ 0xE0001000) -- Data:  01 00 00 40 00 00 00 00 00 00 00 00 00 00 00 00 ...  returns 0x00 (0001ms, 0421ms total)
T2428 000:493 JLINK_Halt()  returns 0x00 (0000ms, 0421ms total)
T2428 000:493 JLINK_IsHalted()  returns TRUE (0000ms, 0421ms total)
T2428 000:495 JLINK_WriteMem(0x20000000, 0x0164 Bytes, ...) -- Data:  00 BE 0A E0 0D 78 2D 06 68 40 08 24 40 00 00 D3 ... -- CPU_WriteMem(356 bytes @ 0x20000000)  returns 0x164 (0004ms, 0425ms total)
T2428 000:499 JLINK_WriteReg(R0, 0x08000000)  returns 0x00 (0000ms, 0425ms total)
T2428 000:499 JLINK_WriteReg(R1, 0x007A1200)  returns 0x00 (0000ms, 0425ms total)
T2428 000:499 JLINK_WriteReg(R2, 0x00000001)  returns 0x00 (0000ms, 0425ms total)
T2428 000:499 JLINK_WriteReg(R3, 0x00000000)  returns 0x00 (0000ms, 0425ms total)
T2428 000:499 JLINK_WriteReg(R4, 0x00000000)  returns 0x00 (0000ms, 0425ms total)
T2428 000:499 JLINK_WriteReg(R5, 0x00000000)  returns 0x00 (0000ms, 0425ms total)
T2428 000:499 JLINK_WriteReg(R6, 0x00000000)  returns 0x00 (0000ms, 0425ms total)
T2428 000:499 JLINK_WriteReg(R7, 0x00000000)  returns 0x00 (0000ms, 0425ms total)
T2428 000:499 JLINK_WriteReg(R8, 0x00000000)  returns 0x00 (0000ms, 0425ms total)
T2428 000:499 JLINK_WriteReg(R9, 0x20000160)  returns 0x00 (0000ms, 0425ms total)
T2428 000:499 JLINK_WriteReg(R10, 0x00000000)  returns 0x00 (0000ms, 0425ms total)
T2428 000:499 JLINK_WriteReg(R11, 0x00000000)  returns 0x00 (0000ms, 0425ms total)
T2428 000:499 JLINK_WriteReg(R12, 0x00000000)  returns 0x00 (0000ms, 0425ms total)
T2428 000:499 JLINK_WriteReg(R13, 0x20000800)  returns 0x00 (0000ms, 0425ms total)
T2428 000:499 JLINK_WriteReg(R14, 0x20000001)  returns 0x00 (0000ms, 0425ms total)
T2428 000:499 JLINK_WriteReg(R15, 0x20000038)  returns 0x00 (0000ms, 0425ms total)
T2428 000:499 JLINK_WriteReg(XPSR, 0x01000000)  returns 0x00 (0000ms, 0425ms total)
T2428 000:499 JLINK_WriteReg(MSP, 0x20000800)  returns 0x00 (0000ms, 0425ms total)
T2428 000:499 JLINK_WriteReg(PSP, 0x20000800)  returns 0x00 (0000ms, 0425ms total)
T2428 000:499 JLINK_WriteReg(CFBP, 0x00000000)  returns 0x00 (0000ms, 0425ms total)
T2428 000:499 JLINK_SetBPEx(Addr = 0x20000000, Type = 0xFFFFFFF2) -- CPU_ReadMem(2 bytes @ 0x20000000)  returns 0x00000001 (0001ms, 0426ms total)
T2428 000:500 JLINK_Go() -- CPU_WriteMem(2 bytes @ 0x20000000) -- CPU_WriteMem(4 bytes @ 0xE0002008) -- CPU_WriteMem(4 bytes @ 0xE000200C) -- CPU_WriteMem(4 bytes @ 0xE0002010) -- CPU_WriteMem(4 bytes @ 0xE0002014) -- CPU_WriteMem(4 bytes @ 0xE0002018) -- CPU_WriteMem(4 bytes @ 0xE000201C) (0010ms, 0436ms total)
T2428 000:510 JLINK_IsHalted() -- CPU_ReadMem(2 bytes @ 0x20000000)  returns TRUE (0005ms, 0441ms total)
T2428 000:515 JLINK_ReadReg(R15)  returns 0x20000000 (0000ms, 0436ms total)
T2428 000:515 JLINK_ClrBPEx(BPHandle = 0x00000001)  returns 0x00 (0000ms, 0436ms total)
T2428 000:515 JLINK_ReadReg(R0)  returns 0x00000000 (0000ms, 0436ms total)
T2428 000:516 JLINK_WriteReg(R0, 0x08000000)  returns 0x00 (0000ms, 0436ms total)
T2428 000:516 JLINK_WriteReg(R1, 0x007A1200)  returns 0x00 (0000ms, 0436ms total)
T2428 000:516 JLINK_WriteReg(R2, 0x00000001)  returns 0x00 (0000ms, 0436ms total)
T2428 000:516 JLINK_WriteReg(R3, 0x00000000)  returns 0x00 (0000ms, 0436ms total)
T2428 000:516 JLINK_WriteReg(R4, 0x00000000)  returns 0x00 (0000ms, 0436ms total)
T2428 000:516 JLINK_WriteReg(R5, 0x00000000)  returns 0x00 (0000ms, 0436ms total)
T2428 000:516 JLINK_WriteReg(R6, 0x00000000)  returns 0x00 (0000ms, 0436ms total)
T2428 000:516 JLINK_WriteReg(R7, 0x00000000)  returns 0x00 (0000ms, 0436ms total)
T2428 000:516 JLINK_WriteReg(R8, 0x00000000)  returns 0x00 (0000ms, 0436ms total)
T2428 000:516 JLINK_WriteReg(R9, 0x20000160)  returns 0x00 (0000ms, 0436ms total)
T2428 000:516 JLINK_WriteReg(R10, 0x00000000)  returns 0x00 (0000ms, 0436ms total)
T2428 000:516 JLINK_WriteReg(R11, 0x00000000)  returns 0x00 (0000ms, 0436ms total)
T2428 000:516 JLINK_WriteReg(R12, 0x00000000)  returns 0x00 (0000ms, 0436ms total)
T2428 000:516 JLINK_WriteReg(R13, 0x20000800)  returns 0x00 (0000ms, 0436ms total)
T2428 000:516 JLINK_WriteReg(R14, 0x20000001)  returns 0x00 (0000ms, 0436ms total)
T2428 000:516 JLINK_WriteReg(R15, 0x2000007C)  returns 0x00 (0000ms, 0436ms total)
T2428 000:516 JLINK_WriteReg(XPSR, 0x01000000)  returns 0x00 (0000ms, 0436ms total)
T2428 000:516 JLINK_WriteReg(MSP, 0x20000800)  returns 0x00 (0000ms, 0436ms total)
T2428 000:516 JLINK_WriteReg(PSP, 0x20000800)  returns 0x00 (0000ms, 0436ms total)
T2428 000:516 JLINK_WriteReg(CFBP, 0x00000000)  returns 0x00 (0000ms, 0436ms total)
T2428 000:516 JLINK_SetBPEx(Addr = 0x20000000, Type = 0xFFFFFFF2)  returns 0x00000002 (0000ms, 0436ms total)
T2428 000:516 JLINK_Go() (0002ms, 0438ms total)
T2428 000:518 JLINK_IsHalted()  returns FALSE (0001ms, 0439ms total)
T2428 000:554 JLINK_IsHalted() -- CPU_ReadMem(2 bytes @ 0x20000000)  returns TRUE (0005ms, 0443ms total)
T2428 000:559 JLINK_ReadReg(R15)  returns 0x20000000 (0000ms, 0438ms total)
T2428 000:559 JLINK_ClrBPEx(BPHandle = 0x00000002)  returns 0x00 (0000ms, 0438ms total)
T2428 000:559 JLINK_ReadReg(R0)  returns 0x00000000 (0000ms, 0438ms total)
T2428 000:611 JLINK_WriteReg(R0, 0x00000001)  returns 0x00 (0000ms, 0438ms total)
T2428 000:611 JLINK_WriteReg(R1, 0x007A1200)  returns 0x00 (0000ms, 0438ms total)
T2428 000:611 JLINK_WriteReg(R2, 0x00000001)  returns 0x00 (0000ms, 0438ms total)
T2428 000:611 JLINK_WriteReg(R3, 0x00000000)  returns 0x00 (0000ms, 0438ms total)
T2428 000:611 JLINK_WriteReg(R4, 0x00000000)  returns 0x00 (0000ms, 0438ms total)
T2428 000:611 JLINK_WriteReg(R5, 0x00000000)  returns 0x00 (0000ms, 0438ms total)
T2428 000:611 JLINK_WriteReg(R6, 0x00000000)  returns 0x00 (0000ms, 0438ms total)
T2428 000:611 JLINK_WriteReg(R7, 0x00000000)  returns 0x00 (0000ms, 0438ms total)
T2428 000:611 JLINK_WriteReg(R8, 0x00000000)  returns 0x00 (0000ms, 0438ms total)
T2428 000:611 JLINK_WriteReg(R9, 0x20000160)  returns 0x00 (0000ms, 0438ms total)
T2428 000:611 JLINK_WriteReg(R10, 0x00000000)  returns 0x00 (0000ms, 0438ms total)
T2428 000:611 JLINK_WriteReg(R11, 0x00000000)  returns 0x00 (0000ms, 0438ms total)
T2428 000:611 JLINK_WriteReg(R12, 0x00000000)  returns 0x00 (0000ms, 0438ms total)
T2428 000:611 JLINK_WriteReg(R13, 0x20000800)  returns 0x00 (0000ms, 0438ms total)
T2428 000:611 JLINK_WriteReg(R14, 0x20000001)  returns 0x00 (0000ms, 0438ms total)
T2428 000:611 JLINK_WriteReg(R15, 0x2000006A)  returns 0x00 (0000ms, 0438ms total)
T2428 000:611 JLINK_WriteReg(XPSR, 0x01000000)  returns 0x00 (0000ms, 0438ms total)
T2428 000:611 JLINK_WriteReg(MSP, 0x20000800)  returns 0x00 (0000ms, 0438ms total)
T2428 000:611 JLINK_WriteReg(PSP, 0x20000800)  returns 0x00 (0000ms, 0438ms total)
T2428 000:611 JLINK_WriteReg(CFBP, 0x00000000)  returns 0x00 (0000ms, 0438ms total)
T2428 000:611 JLINK_SetBPEx(Addr = 0x20000000, Type = 0xFFFFFFF2)  returns 0x00000003 (0000ms, 0438ms total)
T2428 000:611 JLINK_Go() (0003ms, 0441ms total)
T2428 000:614 JLINK_IsHalted() -- CPU_ReadMem(2 bytes @ 0x20000000)  returns TRUE (0005ms, 0446ms total)
T2428 000:619 JLINK_ReadReg(R15)  returns 0x20000000 (0000ms, 0441ms total)
T2428 000:619 JLINK_ClrBPEx(BPHandle = 0x00000003)  returns 0x00 (0000ms, 0441ms total)
T2428 000:619 JLINK_ReadReg(R0)  returns 0x00000000 (0000ms, 0441ms total)
T2428 000:625 JLINK_WriteMem(0x20000000, 0x0164 Bytes, ...) -- Data:  00 BE 0A E0 0D 78 2D 06 68 40 08 24 40 00 00 D3 ... -- CPU_WriteMem(356 bytes @ 0x20000000)  returns 0x164 (0003ms, 0445ms total)
T2428 000:628 JLINK_WriteReg(R0, 0x08000000)  returns 0x00 (0000ms, 0445ms total)
T2428 000:628 JLINK_WriteReg(R1, 0x007A1200)  returns 0x00 (0000ms, 0445ms total)
T2428 000:628 JLINK_WriteReg(R2, 0x00000002)  returns 0x00 (0000ms, 0445ms total)
T2428 000:628 JLINK_WriteReg(R3, 0x00000000)  returns 0x00 (0000ms, 0445ms total)
T2428 000:628 JLINK_WriteReg(R4, 0x00000000)  returns 0x00 (0000ms, 0445ms total)
T2428 000:628 JLINK_WriteReg(R5, 0x00000000)  returns 0x00 (0000ms, 0445ms total)
T2428 000:628 JLINK_WriteReg(R6, 0x00000000)  returns 0x00 (0000ms, 0445ms total)
T2428 000:628 JLINK_WriteReg(R7, 0x00000000)  returns 0x00 (0000ms, 0445ms total)
T2428 000:628 JLINK_WriteReg(R8, 0x00000000)  returns 0x00 (0000ms, 0445ms total)
T2428 000:628 JLINK_WriteReg(R9, 0x20000160)  returns 0x00 (0000ms, 0445ms total)
T2428 000:628 JLINK_WriteReg(R10, 0x00000000)  returns 0x00 (0000ms, 0445ms total)
T2428 000:628 JLINK_WriteReg(R11, 0x00000000)  returns 0x00 (0000ms, 0445ms total)
T2428 000:628 JLINK_WriteReg(R12, 0x00000000)  returns 0x00 (0000ms, 0445ms total)
T2428 000:628 JLINK_WriteReg(R13, 0x20000800)  returns 0x00 (0000ms, 0445ms total)
T2428 000:628 JLINK_WriteReg(R14, 0x20000001)  returns 0x00 (0000ms, 0445ms total)
T2428 000:628 JLINK_WriteReg(R15, 0x20000038)  returns 0x00 (0001ms, 0446ms total)
T2428 000:629 JLINK_WriteReg(XPSR, 0x01000000)  returns 0x00 (0000ms, 0446ms total)
T2428 000:629 JLINK_WriteReg(MSP, 0x20000800)  returns 0x00 (0000ms, 0446ms total)
T2428 000:629 JLINK_WriteReg(PSP, 0x20000800)  returns 0x00 (0000ms, 0446ms total)
T2428 000:629 JLINK_WriteReg(CFBP, 0x00000000)  returns 0x00 (0000ms, 0446ms total)
T2428 000:629 JLINK_SetBPEx(Addr = 0x20000000, Type = 0xFFFFFFF2) -- CPU_ReadMem(2 bytes @ 0x20000000)  returns 0x00000004 (0001ms, 0447ms total)
T2428 000:630 JLINK_Go() -- CPU_WriteMem(2 bytes @ 0x20000000) (0003ms, 0450ms total)
T2428 000:633 JLINK_IsHalted() -- CPU_ReadMem(2 bytes @ 0x20000000)  returns TRUE (0006ms, 0456ms total)
T2428 000:639 JLINK_ReadReg(R15)  returns 0x20000000 (0000ms, 0450ms total)
T2428 000:639 JLINK_ClrBPEx(BPHandle = 0x00000004)  returns 0x00 (0000ms, 0450ms total)
T2428 000:639 JLINK_ReadReg(R0)  returns 0x00000000 (0000ms, 0450ms total)
T2428 000:639 JLINK_WriteMem(0x20000164, 0x0400 Bytes, ...) -- Data:  30 04 00 20 45 01 00 08 91 1E 00 08 93 1E 00 08 ... -- CPU_WriteMem(1024 bytes @ 0x20000164)  returns 0x400 (0008ms, 0458ms total)
T2428 000:647 JLINK_WriteReg(R0, 0x08000000)  returns 0x00 (0000ms, 0458ms total)
T2428 000:647 JLINK_WriteReg(R1, 0x00000400)  returns 0x00 (0000ms, 0458ms total)
T2428 000:647 JLINK_WriteReg(R2, 0x20000164)  returns 0x00 (0000ms, 0458ms total)
T2428 000:647 JLINK_WriteReg(R3, 0x00000000)  returns 0x00 (0000ms, 0458ms total)
T2428 000:647 JLINK_WriteReg(R4, 0x00000000)  returns 0x00 (0000ms, 0458ms total)
T2428 000:647 JLINK_WriteReg(R5, 0x00000000)  returns 0x00 (0000ms, 0458ms total)
T2428 000:647 JLINK_WriteReg(R6, 0x00000000)  returns 0x00 (0000ms, 0458ms total)
T2428 000:647 JLINK_WriteReg(R7, 0x00000000)  returns 0x00 (0000ms, 0458ms total)
T2428 000:647 JLINK_WriteReg(R8, 0x00000000)  returns 0x00 (0001ms, 0459ms total)
T2428 000:648 JLINK_WriteReg(R9, 0x20000160)  returns 0x00 (0000ms, 0459ms total)
T2428 000:648 JLINK_WriteReg(R10, 0x00000000)  returns 0x00 (0000ms, 0459ms total)
T2428 000:648 JLINK_WriteReg(R11, 0x00000000)  returns 0x00 (0000ms, 0459ms total)
T2428 000:648 JLINK_WriteReg(R12, 0x00000000)  returns 0x00 (0000ms, 0459ms total)
T2428 000:648 JLINK_WriteReg(R13, 0x20000800)  returns 0x00 (0000ms, 0459ms total)
T2428 000:648 JLINK_WriteReg(R14, 0x20000001)  returns 0x00 (0000ms, 0459ms total)
T2428 000:648 JLINK_WriteReg(R15, 0x200000F4)  returns 0x00 (0000ms, 0459ms total)
T2428 000:648 JLINK_WriteReg(XPSR, 0x01000000)  returns 0x00 (0000ms, 0459ms total)
T2428 000:648 JLINK_WriteReg(MSP, 0x20000800)  returns 0x00 (0000ms, 0459ms total)
T2428 000:648 JLINK_WriteReg(PSP, 0x20000800)  returns 0x00 (0000ms, 0459ms total)
T2428 000:648 JLINK_WriteReg(CFBP, 0x00000000)  returns 0x00 (0000ms, 0459ms total)
T2428 000:648 JLINK_SetBPEx(Addr = 0x20000000, Type = 0xFFFFFFF2)  returns 0x00000005 (0000ms, 0459ms total)
T2428 000:648 JLINK_Go() (0002ms, 0461ms total)
T2428 000:650 JLINK_IsHalted()  returns FALSE (0001ms, 0462ms total)
T2428 000:667 JLINK_IsHalted()  returns FALSE (0001ms, 0462ms total)
T2428 000:669 JLINK_IsHalted()  returns FALSE (0001ms, 0462ms total)
T2428 000:671 JLINK_IsHalted()  returns FALSE (0001ms, 0462ms total)
T2428 000:673 JLINK_IsHalted()  returns FALSE (0001ms, 0462ms total)
T2428 000:675 JLINK_IsHalted()  returns FALSE (0001ms, 0462ms total)
T2428 000:677 JLINK_IsHalted()  returns FALSE (0001ms, 0462ms total)
T2428 000:679 JLINK_IsHalted()  returns FALSE (0001ms, 0462ms total)
T2428 000:681 JLINK_IsHalted() -- CPU_ReadMem(2 bytes @ 0x20000000)  returns TRUE (0006ms, 0467ms total)
T2428 000:687 JLINK_ReadReg(R15)  returns 0x20000000 (0000ms, 0461ms total)
T2428 000:687 JLINK_ClrBPEx(BPHandle = 0x00000005)  returns 0x00 (0000ms, 0461ms total)
T2428 000:687 JLINK_ReadReg(R0)  returns 0x00000000 (0000ms, 0461ms total)
T2428 000:688 JLINK_WriteMem(0x20000164, 0x0400 Bytes, ...) -- Data:  21 F0 04 01 4F F0 E0 22 11 61 70 47 00 00 FA 05 ... -- CPU_WriteMem(1024 bytes @ 0x20000164)  returns 0x400 (0008ms, 0469ms total)
T2428 000:696 JLINK_WriteReg(R0, 0x08000400)  returns 0x00 (0000ms, 0469ms total)
T2428 000:696 JLINK_WriteReg(R1, 0x00000400)  returns 0x00 (0000ms, 0469ms total)
T2428 000:696 JLINK_WriteReg(R2, 0x20000164)  returns 0x00 (0000ms, 0469ms total)
T2428 000:696 JLINK_WriteReg(R3, 0x00000000)  returns 0x00 (0000ms, 0469ms total)
T2428 000:696 JLINK_WriteReg(R4, 0x00000000)  returns 0x00 (0000ms, 0469ms total)
T2428 000:696 JLINK_WriteReg(R5, 0x00000000)  returns 0x00 (0000ms, 0469ms total)
T2428 000:696 JLINK_WriteReg(R6, 0x00000000)  returns 0x00 (0000ms, 0469ms total)
T2428 000:696 JLINK_WriteReg(R7, 0x00000000)  returns 0x00 (0000ms, 0469ms total)
T2428 000:696 JLINK_WriteReg(R8, 0x00000000)  returns 0x00 (0000ms, 0469ms total)
T2428 000:696 JLINK_WriteReg(R9, 0x20000160)  returns 0x00 (0000ms, 0469ms total)
T2428 000:696 JLINK_WriteReg(R10, 0x00000000)  returns 0x00 (0000ms, 0469ms total)
T2428 000:696 JLINK_WriteReg(R11, 0x00000000)  returns 0x00 (0000ms, 0469ms total)
T2428 000:696 JLINK_WriteReg(R12, 0x00000000)  returns 0x00 (0000ms, 0469ms total)
T2428 000:696 JLINK_WriteReg(R13, 0x20000800)  returns 0x00 (0000ms, 0469ms total)
T2428 000:696 JLINK_WriteReg(R14, 0x20000001)  returns 0x00 (0000ms, 0469ms total)
T2428 000:696 JLINK_WriteReg(R15, 0x200000F4)  returns 0x00 (0000ms, 0469ms total)
T2428 000:696 JLINK_WriteReg(XPSR, 0x01000000)  returns 0x00 (0000ms, 0469ms total)
T2428 000:696 JLINK_WriteReg(MSP, 0x20000800)  returns 0x00 (0000ms, 0469ms total)
T2428 000:696 JLINK_WriteReg(PSP, 0x20000800)  returns 0x00 (0000ms, 0469ms total)
T2428 000:696 JLINK_WriteReg(CFBP, 0x00000000)  returns 0x00 (0000ms, 0469ms total)
T2428 000:696 JLINK_SetBPEx(Addr = 0x20000000, Type = 0xFFFFFFF2)  returns 0x00000006 (0000ms, 0469ms total)
T2428 000:696 JLINK_Go() (0003ms, 0472ms total)
T2428 000:699 JLINK_IsHalted()  returns FALSE (0001ms, 0473ms total)
T2428 000:707 JLINK_IsHalted()  returns FALSE (0001ms, 0473ms total)
T2428 000:709 JLINK_IsHalted()  returns FALSE (0001ms, 0473ms total)
T2428 000:711 JLINK_IsHalted()  returns FALSE (0001ms, 0473ms total)
T2428 000:713 JLINK_IsHalted()  returns FALSE (0001ms, 0473ms total)
T2428 000:715 JLINK_IsHalted()  returns FALSE (0001ms, 0473ms total)
T2428 000:717 JLINK_IsHalted()  returns FALSE (0001ms, 0473ms total)
T2428 000:719 JLINK_IsHalted()  returns FALSE (0001ms, 0473ms total)
T2428 000:721 JLINK_IsHalted()  returns FALSE (0001ms, 0473ms total)
T2428 000:723 JLINK_IsHalted()  returns FALSE (0001ms, 0473ms total)
T2428 000:725 JLINK_IsHalted()  returns FALSE (0001ms, 0473ms total)
T2428 000:727 JLINK_IsHalted()  returns FALSE (0001ms, 0473ms total)
T2428 000:729 JLINK_IsHalted() -- CPU_ReadMem(2 bytes @ 0x20000000)  returns TRUE (0006ms, 0478ms total)
T2428 000:735 JLINK_ReadReg(R15)  returns 0x20000000 (0000ms, 0472ms total)
T2428 000:735 JLINK_ClrBPEx(BPHandle = 0x00000006)  returns 0x00 (0000ms, 0472ms total)
T2428 000:735 JLINK_ReadReg(R0)  returns 0x00000000 (0000ms, 0472ms total)
T2428 000:735 JLINK_WriteMem(0x20000164, 0x0400 Bytes, ...) -- Data:  01 46 00 22 00 23 00 20 4A 11 01 2A 02 D1 B8 4C ... -- CPU_WriteMem(1024 bytes @ 0x20000164)  returns 0x400 (0009ms, 0481ms total)
T2428 000:744 JLINK_WriteReg(R0, 0x08000800)  returns 0x00 (0000ms, 0481ms total)
T2428 000:744 JLINK_WriteReg(R1, 0x00000400)  returns 0x00 (0000ms, 0481ms total)
T2428 000:744 JLINK_WriteReg(R2, 0x20000164)  returns 0x00 (0000ms, 0481ms total)
T2428 000:744 JLINK_WriteReg(R3, 0x00000000)  returns 0x00 (0000ms, 0481ms total)
T2428 000:744 JLINK_WriteReg(R4, 0x00000000)  returns 0x00 (0000ms, 0481ms total)
T2428 000:744 JLINK_WriteReg(R5, 0x00000000)  returns 0x00 (0000ms, 0481ms total)
T2428 000:744 JLINK_WriteReg(R6, 0x00000000)  returns 0x00 (0000ms, 0481ms total)
T2428 000:744 JLINK_WriteReg(R7, 0x00000000)  returns 0x00 (0000ms, 0481ms total)
T2428 000:744 JLINK_WriteReg(R8, 0x00000000)  returns 0x00 (0000ms, 0481ms total)
T2428 000:744 JLINK_WriteReg(R9, 0x20000160)  returns 0x00 (0000ms, 0481ms total)
T2428 000:744 JLINK_WriteReg(R10, 0x00000000)  returns 0x00 (0000ms, 0481ms total)
T2428 000:744 JLINK_WriteReg(R11, 0x00000000)  returns 0x00 (0000ms, 0481ms total)
T2428 000:744 JLINK_WriteReg(R12, 0x00000000)  returns 0x00 (0000ms, 0481ms total)
T2428 000:744 JLINK_WriteReg(R13, 0x20000800)  returns 0x00 (0000ms, 0481ms total)
T2428 000:744 JLINK_WriteReg(R14, 0x20000001)  returns 0x00 (0000ms, 0481ms total)
T2428 000:744 JLINK_WriteReg(R15, 0x200000F4)  returns 0x00 (0000ms, 0481ms total)
T2428 000:744 JLINK_WriteReg(XPSR, 0x01000000)  returns 0x00 (0000ms, 0481ms total)
T2428 000:744 JLINK_WriteReg(MSP, 0x20000800)  returns 0x00 (0000ms, 0481ms total)
T2428 000:744 JLINK_WriteReg(PSP, 0x20000800)  returns 0x00 (0000ms, 0481ms total)
T2428 000:744 JLINK_WriteReg(CFBP, 0x00000000)  returns 0x00 (0000ms, 0481ms total)
T2428 000:744 JLINK_SetBPEx(Addr = 0x20000000, Type = 0xFFFFFFF2)  returns 0x00000007 (0000ms, 0481ms total)
T2428 000:744 JLINK_Go() (0003ms, 0484ms total)
T2428 000:747 JLINK_IsHalted()  returns FALSE (0001ms, 0485ms total)
T2428 000:750 JLINK_IsHalted()  returns FALSE (0001ms, 0485ms total)
T2428 000:755 JLINK_IsHalted()  returns FALSE (0001ms, 0485ms total)
T2428 000:757 JLINK_IsHalted()  returns FALSE (0001ms, 0485ms total)
T2428 000:759 JLINK_IsHalted()  returns FALSE (0001ms, 0485ms total)
T2428 000:761 JLINK_IsHalted()  returns FALSE (0001ms, 0485ms total)
T2428 000:766 JLINK_IsHalted()  returns FALSE (0001ms, 0485ms total)
T2428 000:768 JLINK_IsHalted()  returns FALSE (0001ms, 0485ms total)
T2428 000:770 JLINK_IsHalted()  returns FALSE (0001ms, 0485ms total)
T2428 000:772 JLINK_IsHalted()  returns FALSE (0001ms, 0485ms total)
T2428 000:774 JLINK_IsHalted()  returns FALSE (0001ms, 0485ms total)
T2428 000:776 JLINK_IsHalted()  returns FALSE (0001ms, 0485ms total)
T2428 000:778 JLINK_IsHalted() -- CPU_ReadMem(2 bytes @ 0x20000000)  returns TRUE (0006ms, 0490ms total)
T2428 000:784 JLINK_ReadReg(R15)  returns 0x20000000 (0000ms, 0484ms total)
T2428 000:784 JLINK_ClrBPEx(BPHandle = 0x00000007)  returns 0x00 (0000ms, 0484ms total)
T2428 000:784 JLINK_ReadReg(R0)  returns 0x00000000 (0000ms, 0484ms total)
T2428 000:785 JLINK_WriteMem(0x20000164, 0x0400 Bytes, ...) -- Data:  01 21 08 05 FF F7 3C FF 00 21 4F F4 80 10 FF F7 ... -- CPU_WriteMem(1024 bytes @ 0x20000164)  returns 0x400 (0008ms, 0492ms total)
T2428 000:793 JLINK_WriteReg(R0, 0x08000C00)  returns 0x00 (0000ms, 0492ms total)
T2428 000:793 JLINK_WriteReg(R1, 0x00000400)  returns 0x00 (0000ms, 0492ms total)
T2428 000:793 JLINK_WriteReg(R2, 0x20000164)  returns 0x00 (0000ms, 0492ms total)
T2428 000:793 JLINK_WriteReg(R3, 0x00000000)  returns 0x00 (0000ms, 0492ms total)
T2428 000:793 JLINK_WriteReg(R4, 0x00000000)  returns 0x00 (0000ms, 0492ms total)
T2428 000:793 JLINK_WriteReg(R5, 0x00000000)  returns 0x00 (0000ms, 0492ms total)
T2428 000:793 JLINK_WriteReg(R6, 0x00000000)  returns 0x00 (0000ms, 0492ms total)
T2428 000:793 JLINK_WriteReg(R7, 0x00000000)  returns 0x00 (0000ms, 0492ms total)
T2428 000:793 JLINK_WriteReg(R8, 0x00000000)  returns 0x00 (0000ms, 0492ms total)
T2428 000:793 JLINK_WriteReg(R9, 0x20000160)  returns 0x00 (0000ms, 0492ms total)
T2428 000:793 JLINK_WriteReg(R10, 0x00000000)  returns 0x00 (0000ms, 0492ms total)
T2428 000:793 JLINK_WriteReg(R11, 0x00000000)  returns 0x00 (0000ms, 0492ms total)
T2428 000:793 JLINK_WriteReg(R12, 0x00000000)  returns 0x00 (0000ms, 0492ms total)
T2428 000:793 JLINK_WriteReg(R13, 0x20000800)  returns 0x00 (0000ms, 0492ms total)
T2428 000:793 JLINK_WriteReg(R14, 0x20000001)  returns 0x00 (0000ms, 0492ms total)
T2428 000:793 JLINK_WriteReg(R15, 0x200000F4)  returns 0x00 (0000ms, 0492ms total)
T2428 000:793 JLINK_WriteReg(XPSR, 0x01000000)  returns 0x00 (0000ms, 0492ms total)
T2428 000:793 JLINK_WriteReg(MSP, 0x20000800)  returns 0x00 (0000ms, 0492ms total)
T2428 000:793 JLINK_WriteReg(PSP, 0x20000800)  returns 0x00 (0000ms, 0492ms total)
T2428 000:793 JLINK_WriteReg(CFBP, 0x00000000)  returns 0x00 (0000ms, 0492ms total)
T2428 000:793 JLINK_SetBPEx(Addr = 0x20000000, Type = 0xFFFFFFF2)  returns 0x00000008 (0000ms, 0492ms total)
T2428 000:793 JLINK_Go() (0003ms, 0495ms total)
T2428 000:796 JLINK_IsHalted()  returns FALSE (0001ms, 0496ms total)
T2428 000:802 JLINK_IsHalted()  returns FALSE (0001ms, 0496ms total)
T2428 000:804 JLINK_IsHalted()  returns FALSE (0001ms, 0496ms total)
T2428 000:806 JLINK_IsHalted()  returns FALSE (0001ms, 0496ms total)
T2428 000:808 JLINK_IsHalted()  returns FALSE (0001ms, 0496ms total)
T2428 000:815 JLINK_IsHalted()  returns FALSE (0001ms, 0496ms total)
T2428 000:817 JLINK_IsHalted()  returns FALSE (0001ms, 0496ms total)
T2428 000:819 JLINK_IsHalted()  returns FALSE (0001ms, 0496ms total)
T2428 000:821 JLINK_IsHalted()  returns FALSE (0001ms, 0496ms total)
T2428 000:823 JLINK_IsHalted()  returns FALSE (0001ms, 0496ms total)
T2428 000:825 JLINK_IsHalted()  returns FALSE (0001ms, 0496ms total)
T2428 000:827 JLINK_IsHalted() -- CPU_ReadMem(2 bytes @ 0x20000000)  returns TRUE (0005ms, 0500ms total)
T2428 000:832 JLINK_ReadReg(R15)  returns 0x20000000 (0000ms, 0495ms total)
T2428 000:832 JLINK_ClrBPEx(BPHandle = 0x00000008)  returns 0x00 (0000ms, 0495ms total)
T2428 000:832 JLINK_ReadReg(R0)  returns 0x00000000 (0000ms, 0495ms total)
T2428 000:833 JLINK_WriteMem(0x20000164, 0x0400 Bytes, ...) -- Data:  D9 4F B8 42 0E D0 D9 4F B8 42 0B D0 B0 F1 80 4F ... -- CPU_WriteMem(1024 bytes @ 0x20000164)  returns 0x400 (0008ms, 0503ms total)
T2428 000:841 JLINK_WriteReg(R0, 0x08001000)  returns 0x00 (0000ms, 0503ms total)
T2428 000:841 JLINK_WriteReg(R1, 0x00000400)  returns 0x00 (0000ms, 0503ms total)
T2428 000:841 JLINK_WriteReg(R2, 0x20000164)  returns 0x00 (0000ms, 0503ms total)
T2428 000:841 JLINK_WriteReg(R3, 0x00000000)  returns 0x00 (0000ms, 0503ms total)
T2428 000:841 JLINK_WriteReg(R4, 0x00000000)  returns 0x00 (0000ms, 0503ms total)
T2428 000:841 JLINK_WriteReg(R5, 0x00000000)  returns 0x00 (0000ms, 0503ms total)
T2428 000:841 JLINK_WriteReg(R6, 0x00000000)  returns 0x00 (0000ms, 0503ms total)
T2428 000:841 JLINK_WriteReg(R7, 0x00000000)  returns 0x00 (0000ms, 0503ms total)
T2428 000:841 JLINK_WriteReg(R8, 0x00000000)  returns 0x00 (0000ms, 0503ms total)
T2428 000:841 JLINK_WriteReg(R9, 0x20000160)  returns 0x00 (0000ms, 0503ms total)
T2428 000:841 JLINK_WriteReg(R10, 0x00000000)  returns 0x00 (0000ms, 0503ms total)
T2428 000:841 JLINK_WriteReg(R11, 0x00000000)  returns 0x00 (0000ms, 0503ms total)
T2428 000:841 JLINK_WriteReg(R12, 0x00000000)  returns 0x00 (0000ms, 0503ms total)
T2428 000:841 JLINK_WriteReg(R13, 0x20000800)  returns 0x00 (0000ms, 0503ms total)
T2428 000:841 JLINK_WriteReg(R14, 0x20000001)  returns 0x00 (0000ms, 0503ms total)
T2428 000:841 JLINK_WriteReg(R15, 0x200000F4)  returns 0x00 (0000ms, 0503ms total)
T2428 000:841 JLINK_WriteReg(XPSR, 0x01000000)  returns 0x00 (0000ms, 0503ms total)
T2428 000:841 JLINK_WriteReg(MSP, 0x20000800)  returns 0x00 (0001ms, 0504ms total)
T2428 000:842 JLINK_WriteReg(PSP, 0x20000800)  returns 0x00 (0000ms, 0504ms total)
T2428 000:842 JLINK_WriteReg(CFBP, 0x00000000)  returns 0x00 (0000ms, 0504ms total)
T2428 000:842 JLINK_SetBPEx(Addr = 0x20000000, Type = 0xFFFFFFF2)  returns 0x00000009 (0000ms, 0504ms total)
T2428 000:842 JLINK_Go() (0002ms, 0506ms total)
T2428 000:844 JLINK_IsHalted()  returns FALSE (0001ms, 0507ms total)
T2428 000:848 JLINK_IsHalted()  returns FALSE (0001ms, 0507ms total)
T2428 000:850 JLINK_IsHalted()  returns FALSE (0001ms, 0507ms total)
T2428 000:852 JLINK_IsHalted()  returns FALSE (0001ms, 0507ms total)
T2428 000:854 JLINK_IsHalted()  returns FALSE (0001ms, 0507ms total)
T2428 000:859 JLINK_IsHalted()  returns FALSE (0001ms, 0507ms total)
T2428 000:861 JLINK_IsHalted()  returns FALSE (0001ms, 0507ms total)
T2428 000:863 JLINK_IsHalted()  returns FALSE (0001ms, 0507ms total)
T2428 000:865 JLINK_IsHalted()  returns FALSE (0001ms, 0507ms total)
T2428 000:867 JLINK_IsHalted()  returns FALSE (0001ms, 0507ms total)
T2428 000:869 JLINK_IsHalted()  returns FALSE (0009ms, 0515ms total)
T2428 000:880 JLINK_IsHalted() -- CPU_ReadMem(2 bytes @ 0x20000000)  returns TRUE (0005ms, 0511ms total)
T2428 000:885 JLINK_ReadReg(R15)  returns 0x20000000 (0000ms, 0506ms total)
T2428 000:885 JLINK_ClrBPEx(BPHandle = 0x00000009)  returns 0x00 (0000ms, 0506ms total)
T2428 000:885 JLINK_ReadReg(R0)  returns 0x00000000 (0001ms, 0507ms total)
T2428 000:886 JLINK_WriteMem(0x20000164, 0x0400 Bytes, ...) -- Data:  70 47 30 B5 04 46 0D 46 29 46 20 46 FF F7 F0 FF ... -- CPU_WriteMem(1024 bytes @ 0x20000164)  returns 0x400 (0008ms, 0515ms total)
T2428 000:894 JLINK_WriteReg(R0, 0x08001400)  returns 0x00 (0000ms, 0515ms total)
T2428 000:894 JLINK_WriteReg(R1, 0x00000400)  returns 0x00 (0000ms, 0515ms total)
T2428 000:894 JLINK_WriteReg(R2, 0x20000164)  returns 0x00 (0000ms, 0515ms total)
T2428 000:894 JLINK_WriteReg(R3, 0x00000000)  returns 0x00 (0000ms, 0515ms total)
T2428 000:894 JLINK_WriteReg(R4, 0x00000000)  returns 0x00 (0001ms, 0516ms total)
T2428 000:895 JLINK_WriteReg(R5, 0x00000000)  returns 0x00 (0000ms, 0516ms total)
T2428 000:895 JLINK_WriteReg(R6, 0x00000000)  returns 0x00 (0000ms, 0516ms total)
T2428 000:895 JLINK_WriteReg(R7, 0x00000000)  returns 0x00 (0000ms, 0516ms total)
T2428 000:895 JLINK_WriteReg(R8, 0x00000000)  returns 0x00 (0000ms, 0516ms total)
T2428 000:895 JLINK_WriteReg(R9, 0x20000160)  returns 0x00 (0000ms, 0516ms total)
T2428 000:895 JLINK_WriteReg(R10, 0x00000000)  returns 0x00 (0000ms, 0516ms total)
T2428 000:895 JLINK_WriteReg(R11, 0x00000000)  returns 0x00 (0000ms, 0516ms total)
T2428 000:895 JLINK_WriteReg(R12, 0x00000000)  returns 0x00 (0000ms, 0516ms total)
T2428 000:895 JLINK_WriteReg(R13, 0x20000800)  returns 0x00 (0000ms, 0516ms total)
T2428 000:895 JLINK_WriteReg(R14, 0x20000001)  returns 0x00 (0000ms, 0516ms total)
T2428 000:895 JLINK_WriteReg(R15, 0x200000F4)  returns 0x00 (0000ms, 0516ms total)
T2428 000:895 JLINK_WriteReg(XPSR, 0x01000000)  returns 0x00 (0000ms, 0516ms total)
T2428 000:895 JLINK_WriteReg(MSP, 0x20000800)  returns 0x00 (0000ms, 0516ms total)
T2428 000:895 JLINK_WriteReg(PSP, 0x20000800)  returns 0x00 (0000ms, 0516ms total)
T2428 000:895 JLINK_WriteReg(CFBP, 0x00000000)  returns 0x00 (0000ms, 0516ms total)
T2428 000:895 JLINK_SetBPEx(Addr = 0x20000000, Type = 0xFFFFFFF2)  returns 0x0000000A (0000ms, 0516ms total)
T2428 000:895 JLINK_Go() (0002ms, 0518ms total)
T2428 000:897 JLINK_IsHalted()  returns FALSE (0001ms, 0519ms total)
T2428 000:899 JLINK_IsHalted()  returns FALSE (0000ms, 0518ms total)
T2428 000:900 JLINK_IsHalted()  returns FALSE (0000ms, 0518ms total)
T2428 000:901 JLINK_IsHalted()  returns FALSE (0001ms, 0519ms total)
T2428 000:905 JLINK_IsHalted()  returns FALSE (0001ms, 0519ms total)
T2428 000:907 JLINK_IsHalted()  returns FALSE (0001ms, 0519ms total)
T2428 000:909 JLINK_IsHalted()  returns FALSE (0001ms, 0519ms total)
T2428 000:911 JLINK_IsHalted()  returns FALSE (0001ms, 0519ms total)
T2428 000:913 JLINK_IsHalted()  returns FALSE (0001ms, 0519ms total)
T2428 000:915 JLINK_IsHalted()  returns FALSE (0001ms, 0519ms total)
T2428 000:923 JLINK_IsHalted()  returns FALSE (0001ms, 0519ms total)
T2428 000:925 JLINK_IsHalted()  returns FALSE (0001ms, 0519ms total)
T2428 000:927 JLINK_IsHalted()  returns FALSE (0001ms, 0519ms total)
T2428 000:929 JLINK_IsHalted() -- CPU_ReadMem(2 bytes @ 0x20000000)  returns TRUE (0006ms, 0524ms total)
T2428 000:935 JLINK_ReadReg(R15)  returns 0x20000000 (0000ms, 0518ms total)
T2428 000:935 JLINK_ClrBPEx(BPHandle = 0x0000000A)  returns 0x00 (0000ms, 0518ms total)
T2428 000:935 JLINK_ReadReg(R0)  returns 0x00000000 (0000ms, 0518ms total)
T2428 000:935 JLINK_WriteMem(0x20000164, 0x0400 Bytes, ...) -- Data:  E0 45 05 60 05 68 4F F6 FF 76 06 EA 02 26 35 43 ... -- CPU_WriteMem(1024 bytes @ 0x20000164)  returns 0x400 (0009ms, 0527ms total)
T2428 000:944 JLINK_WriteReg(R0, 0x08001800)  returns 0x00 (0000ms, 0527ms total)
T2428 000:944 JLINK_WriteReg(R1, 0x00000400)  returns 0x00 (0000ms, 0527ms total)
T2428 000:944 JLINK_WriteReg(R2, 0x20000164)  returns 0x00 (0000ms, 0527ms total)
T2428 000:944 JLINK_WriteReg(R3, 0x00000000)  returns 0x00 (0000ms, 0527ms total)
T2428 000:944 JLINK_WriteReg(R4, 0x00000000)  returns 0x00 (0000ms, 0527ms total)
T2428 000:944 JLINK_WriteReg(R5, 0x00000000)  returns 0x00 (0000ms, 0527ms total)
T2428 000:944 JLINK_WriteReg(R6, 0x00000000)  returns 0x00 (0000ms, 0527ms total)
T2428 000:944 JLINK_WriteReg(R7, 0x00000000)  returns 0x00 (0000ms, 0527ms total)
T2428 000:944 JLINK_WriteReg(R8, 0x00000000)  returns 0x00 (0000ms, 0527ms total)
T2428 000:944 JLINK_WriteReg(R9, 0x20000160)  returns 0x00 (0000ms, 0527ms total)
T2428 000:944 JLINK_WriteReg(R10, 0x00000000)  returns 0x00 (0000ms, 0527ms total)
T2428 000:944 JLINK_WriteReg(R11, 0x00000000)  returns 0x00 (0000ms, 0527ms total)
T2428 000:944 JLINK_WriteReg(R12, 0x00000000)  returns 0x00 (0000ms, 0527ms total)
T2428 000:944 JLINK_WriteReg(R13, 0x20000800)  returns 0x00 (0000ms, 0527ms total)
T2428 000:944 JLINK_WriteReg(R14, 0x20000001)  returns 0x00 (0000ms, 0527ms total)
T2428 000:944 JLINK_WriteReg(R15, 0x200000F4)  returns 0x00 (0000ms, 0527ms total)
T2428 000:944 JLINK_WriteReg(XPSR, 0x01000000)  returns 0x00 (0000ms, 0527ms total)
T2428 000:944 JLINK_WriteReg(MSP, 0x20000800)  returns 0x00 (0000ms, 0527ms total)
T2428 000:944 JLINK_WriteReg(PSP, 0x20000800)  returns 0x00 (0000ms, 0527ms total)
T2428 000:944 JLINK_WriteReg(CFBP, 0x00000000)  returns 0x00 (0000ms, 0527ms total)
T2428 000:944 JLINK_SetBPEx(Addr = 0x20000000, Type = 0xFFFFFFF2)  returns 0x0000000B (0000ms, 0527ms total)
T2428 000:944 JLINK_Go() (0003ms, 0530ms total)
T2428 000:947 JLINK_IsHalted()  returns FALSE (0001ms, 0531ms total)
T2428 000:949 JLINK_IsHalted()  returns FALSE (0001ms, 0531ms total)
T2428 000:952 JLINK_IsHalted()  returns FALSE (0001ms, 0531ms total)
T2428 000:954 JLINK_IsHalted()  returns FALSE (0001ms, 0531ms total)
T2428 000:956 JLINK_IsHalted()  returns FALSE (0001ms, 0531ms total)
T2428 000:958 JLINK_IsHalted()  returns FALSE (0001ms, 0531ms total)
T2428 000:960 JLINK_IsHalted()  returns FALSE (0001ms, 0531ms total)
T2428 000:962 JLINK_IsHalted()  returns FALSE (0001ms, 0531ms total)
T2428 000:964 JLINK_IsHalted()  returns FALSE (0001ms, 0531ms total)
T2428 000:969 JLINK_IsHalted()  returns FALSE (0001ms, 0531ms total)
T2428 000:971 JLINK_IsHalted()  returns FALSE (0001ms, 0531ms total)
T2428 000:973 JLINK_IsHalted()  returns FALSE (0001ms, 0531ms total)
T2428 000:975 JLINK_IsHalted()  returns FALSE (0001ms, 0531ms total)
T2428 000:977 JLINK_IsHalted() -- CPU_ReadMem(2 bytes @ 0x20000000)  returns TRUE (0006ms, 0536ms total)
T2428 000:983 JLINK_ReadReg(R15)  returns 0x20000000 (0000ms, 0530ms total)
T2428 000:983 JLINK_ClrBPEx(BPHandle = 0x0000000B)  returns 0x00 (0000ms, 0530ms total)
T2428 000:983 JLINK_ReadReg(R0)  returns 0x00000000 (0000ms, 0530ms total)
T2428 000:983 JLINK_WriteMem(0x20000164, 0x0400 Bytes, ...) -- Data:  82 82 70 47 21 B1 82 8A 42 F0 10 02 82 82 04 E0 ... -- CPU_WriteMem(1024 bytes @ 0x20000164)  returns 0x400 (0009ms, 0539ms total)
T2428 000:992 JLINK_WriteReg(R0, 0x08001C00)  returns 0x00 (0000ms, 0539ms total)
T2428 000:992 JLINK_WriteReg(R1, 0x00000400)  returns 0x00 (0000ms, 0539ms total)
T2428 000:992 JLINK_WriteReg(R2, 0x20000164)  returns 0x00 (0000ms, 0539ms total)
T2428 000:992 JLINK_WriteReg(R3, 0x00000000)  returns 0x00 (0000ms, 0539ms total)
T2428 000:992 JLINK_WriteReg(R4, 0x00000000)  returns 0x00 (0000ms, 0539ms total)
T2428 000:992 JLINK_WriteReg(R5, 0x00000000)  returns 0x00 (0000ms, 0539ms total)
T2428 000:992 JLINK_WriteReg(R6, 0x00000000)  returns 0x00 (0000ms, 0539ms total)
T2428 000:992 JLINK_WriteReg(R7, 0x00000000)  returns 0x00 (0000ms, 0539ms total)
T2428 000:992 JLINK_WriteReg(R8, 0x00000000)  returns 0x00 (0000ms, 0539ms total)
T2428 000:992 JLINK_WriteReg(R9, 0x20000160)  returns 0x00 (0000ms, 0539ms total)
T2428 000:992 JLINK_WriteReg(R10, 0x00000000)  returns 0x00 (0000ms, 0539ms total)
T2428 000:992 JLINK_WriteReg(R11, 0x00000000)  returns 0x00 (0000ms, 0539ms total)
T2428 000:992 JLINK_WriteReg(R12, 0x00000000)  returns 0x00 (0000ms, 0539ms total)
T2428 000:992 JLINK_WriteReg(R13, 0x20000800)  returns 0x00 (0000ms, 0539ms total)
T2428 000:992 JLINK_WriteReg(R14, 0x20000001)  returns 0x00 (0000ms, 0539ms total)
T2428 000:992 JLINK_WriteReg(R15, 0x200000F4)  returns 0x00 (0000ms, 0539ms total)
T2428 000:992 JLINK_WriteReg(XPSR, 0x01000000)  returns 0x00 (0000ms, 0539ms total)
T2428 000:992 JLINK_WriteReg(MSP, 0x20000800)  returns 0x00 (0000ms, 0539ms total)
T2428 000:992 JLINK_WriteReg(PSP, 0x20000800)  returns 0x00 (0000ms, 0539ms total)
T2428 000:992 JLINK_WriteReg(CFBP, 0x00000000)  returns 0x00 (0000ms, 0539ms total)
T2428 000:992 JLINK_SetBPEx(Addr = 0x20000000, Type = 0xFFFFFFF2)  returns 0x0000000C (0000ms, 0539ms total)
T2428 000:992 JLINK_Go() (0002ms, 0541ms total)
T2428 000:995 JLINK_IsHalted()  returns FALSE (0000ms, 0541ms total)
T2428 000:997 JLINK_IsHalted()  returns FALSE (0003ms, 0544ms total)
T2428 001:002 JLINK_IsHalted()  returns FALSE (0002ms, 0544ms total)
T2428 001:005 JLINK_IsHalted()  returns FALSE (0001ms, 0543ms total)
T2428 001:007 JLINK_IsHalted()  returns FALSE (0001ms, 0543ms total)
T2428 001:009 JLINK_IsHalted()  returns FALSE (0001ms, 0543ms total)
T2428 001:011 JLINK_IsHalted()  returns FALSE (0001ms, 0543ms total)
T2428 001:015 JLINK_IsHalted()  returns FALSE (0001ms, 0543ms total)
T2428 001:017 JLINK_IsHalted()  returns FALSE (0001ms, 0543ms total)
T2428 001:019 JLINK_IsHalted()  returns FALSE (0001ms, 0543ms total)
T2428 001:021 JLINK_IsHalted()  returns FALSE (0001ms, 0543ms total)
T2428 001:023 JLINK_IsHalted()  returns FALSE (0001ms, 0543ms total)
T2428 001:025 JLINK_IsHalted() -- CPU_ReadMem(2 bytes @ 0x20000000)  returns TRUE (0007ms, 0549ms total)
T2428 001:032 JLINK_ReadReg(R15)  returns 0x20000000 (0000ms, 0542ms total)
T2428 001:032 JLINK_ClrBPEx(BPHandle = 0x0000000C)  returns 0x00 (0000ms, 0542ms total)
T2428 001:032 JLINK_ReadReg(R0)  returns 0x00000000 (0000ms, 0542ms total)
T2428 001:033 JLINK_WriteMem(0x20000164, 0x0400 Bytes, ...) -- Data:  04 48 FE F7 5F FE 01 22 11 46 02 48 FF F7 D1 F9 ... -- CPU_WriteMem(1024 bytes @ 0x20000164)  returns 0x400 (0008ms, 0550ms total)
T2428 001:041 JLINK_WriteReg(R0, 0x08002000)  returns 0x00 (0000ms, 0550ms total)
T2428 001:041 JLINK_WriteReg(R1, 0x00000400)  returns 0x00 (0000ms, 0550ms total)
T2428 001:041 JLINK_WriteReg(R2, 0x20000164)  returns 0x00 (0000ms, 0550ms total)
T2428 001:041 JLINK_WriteReg(R3, 0x00000000)  returns 0x00 (0000ms, 0550ms total)
T2428 001:041 JLINK_WriteReg(R4, 0x00000000)  returns 0x00 (0000ms, 0550ms total)
T2428 001:041 JLINK_WriteReg(R5, 0x00000000)  returns 0x00 (0000ms, 0550ms total)
T2428 001:041 JLINK_WriteReg(R6, 0x00000000)  returns 0x00 (0000ms, 0550ms total)
T2428 001:041 JLINK_WriteReg(R7, 0x00000000)  returns 0x00 (0000ms, 0550ms total)
T2428 001:041 JLINK_WriteReg(R8, 0x00000000)  returns 0x00 (0000ms, 0550ms total)
T2428 001:041 JLINK_WriteReg(R9, 0x20000160)  returns 0x00 (0000ms, 0550ms total)
T2428 001:041 JLINK_WriteReg(R10, 0x00000000)  returns 0x00 (0000ms, 0550ms total)
T2428 001:041 JLINK_WriteReg(R11, 0x00000000)  returns 0x00 (0000ms, 0550ms total)
T2428 001:041 JLINK_WriteReg(R12, 0x00000000)  returns 0x00 (0000ms, 0550ms total)
T2428 001:041 JLINK_WriteReg(R13, 0x20000800)  returns 0x00 (0000ms, 0550ms total)
T2428 001:041 JLINK_WriteReg(R14, 0x20000001)  returns 0x00 (0000ms, 0550ms total)
T2428 001:041 JLINK_WriteReg(R15, 0x200000F4)  returns 0x00 (0000ms, 0550ms total)
T2428 001:041 JLINK_WriteReg(XPSR, 0x01000000)  returns 0x00 (0000ms, 0550ms total)
T2428 001:041 JLINK_WriteReg(MSP, 0x20000800)  returns 0x00 (0000ms, 0550ms total)
T2428 001:041 JLINK_WriteReg(PSP, 0x20000800)  returns 0x00 (0000ms, 0550ms total)
T2428 001:041 JLINK_WriteReg(CFBP, 0x00000000)  returns 0x00 (0000ms, 0550ms total)
T2428 001:041 JLINK_SetBPEx(Addr = 0x20000000, Type = 0xFFFFFFF2)  returns 0x0000000D (0000ms, 0550ms total)
T2428 001:041 JLINK_Go() (0003ms, 0553ms total)
T2428 001:044 JLINK_IsHalted()  returns FALSE (0001ms, 0554ms total)
T2428 001:050 JLINK_IsHalted()  returns FALSE (0001ms, 0554ms total)
T2428 001:052 JLINK_IsHalted()  returns FALSE (0001ms, 0554ms total)
T2428 001:054 JLINK_IsHalted()  returns FALSE (0001ms, 0554ms total)
T2428 001:056 JLINK_IsHalted()  returns FALSE (0001ms, 0554ms total)
T2428 001:059 JLINK_IsHalted()  returns FALSE (0001ms, 0554ms total)
T2428 001:061 JLINK_IsHalted()  returns FALSE (0001ms, 0554ms total)
T2428 001:063 JLINK_IsHalted()  returns FALSE (0001ms, 0554ms total)
T2428 001:065 JLINK_IsHalted()  returns FALSE (0001ms, 0554ms total)
T2428 001:067 JLINK_IsHalted()  returns FALSE (0001ms, 0554ms total)
T2428 001:069 JLINK_IsHalted()  returns FALSE (0001ms, 0554ms total)
T2428 001:071 JLINK_IsHalted()  returns FALSE (0001ms, 0554ms total)
T2428 001:073 JLINK_IsHalted()  returns FALSE (0001ms, 0554ms total)
T2428 001:078 JLINK_IsHalted() -- CPU_ReadMem(2 bytes @ 0x20000000)  returns TRUE (0006ms, 0559ms total)
T2428 001:084 JLINK_ReadReg(R15)  returns 0x20000000 (0000ms, 0553ms total)
T2428 001:084 JLINK_ClrBPEx(BPHandle = 0x0000000D)  returns 0x00 (0000ms, 0553ms total)
T2428 001:084 JLINK_ReadReg(R0)  returns 0x00000000 (0000ms, 0553ms total)
T2428 001:084 JLINK_WriteMem(0x20000164, 0x0400 Bytes, ...) -- Data:  20 18 A2 F5 00 17 47 EB 03 01 40 EA D5 70 B6 19 ... -- CPU_WriteMem(1024 bytes @ 0x20000164)  returns 0x400 (0009ms, 0562ms total)
T2428 001:093 JLINK_WriteReg(R0, 0x08002400)  returns 0x00 (0000ms, 0562ms total)
T2428 001:093 JLINK_WriteReg(R1, 0x00000400)  returns 0x00 (0000ms, 0562ms total)
T2428 001:093 JLINK_WriteReg(R2, 0x20000164)  returns 0x00 (0000ms, 0562ms total)
T2428 001:093 JLINK_WriteReg(R3, 0x00000000)  returns 0x00 (0000ms, 0562ms total)
T2428 001:093 JLINK_WriteReg(R4, 0x00000000)  returns 0x00 (0000ms, 0562ms total)
T2428 001:093 JLINK_WriteReg(R5, 0x00000000)  returns 0x00 (0000ms, 0562ms total)
T2428 001:093 JLINK_WriteReg(R6, 0x00000000)  returns 0x00 (0000ms, 0562ms total)
T2428 001:093 JLINK_WriteReg(R7, 0x00000000)  returns 0x00 (0000ms, 0562ms total)
T2428 001:093 JLINK_WriteReg(R8, 0x00000000)  returns 0x00 (0000ms, 0562ms total)
T2428 001:093 JLINK_WriteReg(R9, 0x20000160)  returns 0x00 (0000ms, 0562ms total)
T2428 001:093 JLINK_WriteReg(R10, 0x00000000)  returns 0x00 (0000ms, 0562ms total)
T2428 001:093 JLINK_WriteReg(R11, 0x00000000)  returns 0x00 (0000ms, 0562ms total)
T2428 001:093 JLINK_WriteReg(R12, 0x00000000)  returns 0x00 (0000ms, 0562ms total)
T2428 001:093 JLINK_WriteReg(R13, 0x20000800)  returns 0x00 (0000ms, 0562ms total)
T2428 001:093 JLINK_WriteReg(R14, 0x20000001)  returns 0x00 (0000ms, 0562ms total)
T2428 001:093 JLINK_WriteReg(R15, 0x200000F4)  returns 0x00 (0000ms, 0562ms total)
T2428 001:093 JLINK_WriteReg(XPSR, 0x01000000)  returns 0x00 (0000ms, 0562ms total)
T2428 001:093 JLINK_WriteReg(MSP, 0x20000800)  returns 0x00 (0000ms, 0562ms total)
T2428 001:093 JLINK_WriteReg(PSP, 0x20000800)  returns 0x00 (0000ms, 0562ms total)
T2428 001:093 JLINK_WriteReg(CFBP, 0x00000000)  returns 0x00 (0000ms, 0562ms total)
T2428 001:093 JLINK_SetBPEx(Addr = 0x20000000, Type = 0xFFFFFFF2)  returns 0x0000000E (0000ms, 0562ms total)
T2428 001:093 JLINK_Go() (0003ms, 0565ms total)
T2428 001:096 JLINK_IsHalted()  returns FALSE (0001ms, 0566ms total)
T2428 001:098 JLINK_IsHalted()  returns FALSE (0001ms, 0566ms total)
T2428 001:100 JLINK_IsHalted()  returns FALSE (0001ms, 0566ms total)
T2428 001:102 JLINK_IsHalted()  returns FALSE (0001ms, 0566ms total)
T2428 001:104 JLINK_IsHalted()  returns FALSE (0001ms, 0566ms total)
T2428 001:109 JLINK_IsHalted()  returns FALSE (0001ms, 0566ms total)
T2428 001:111 JLINK_IsHalted()  returns FALSE (0001ms, 0566ms total)
T2428 001:113 JLINK_IsHalted()  returns FALSE (0001ms, 0566ms total)
T2428 001:115 JLINK_IsHalted()  returns FALSE (0001ms, 0566ms total)
T2428 001:117 JLINK_IsHalted()  returns FALSE (0001ms, 0566ms total)
T2428 001:119 JLINK_IsHalted()  returns FALSE (0001ms, 0566ms total)
T2428 001:121 JLINK_IsHalted()  returns FALSE (0001ms, 0566ms total)
T2428 001:126 JLINK_IsHalted() -- CPU_ReadMem(2 bytes @ 0x20000000)  returns TRUE (0006ms, 0571ms total)
T2428 001:132 JLINK_ReadReg(R15)  returns 0x20000000 (0000ms, 0565ms total)
T2428 001:132 JLINK_ClrBPEx(BPHandle = 0x0000000E)  returns 0x00 (0000ms, 0565ms total)
